
T4500 000:961 SEGGER J-Link V4.15n (beta) Log File (0001ms, 0960ms total)
T4500 000:961 DLL Compiled: Jun 18 2010 19:55:09 (0001ms, 0960ms total)
T4500 000:961 Logging started @ 2018-05-22 18:13 (0001ms, 0960ms total)
T4500 000:962 JLINK_SetWarnOutHandler(...) (0000ms, 0961ms total)
T4500 000:962 JLINK_OpenEx(...)
Firmware: J-Link ARM V8 compiled Jul 17 2014 12:31:18
Hardware: V8.00
S/N: 17935099
Feature(s): RDI,FlashDL,FlashBP,JFlash  returns O.K. (0391ms, 0961ms total)
T4500 001:353 JLINK_SetErrorOutHandler(...) (0000ms, 1352ms total)
T4500 001:353 JLINK_ExecCommand("ProjectFile = "E:\pisp1064_Prj\stm32_prj\pisp1064_DABox\USER\JLinkSettings.ini"", ...)  returns 0x00 (0000ms, 1352ms total)
T4500 001:363 JLINK_ExecCommand("DisableConnectionTimeout", ...)  returns 0x00 (0000ms, 1352ms total)
T4500 001:363 JLINK_TIF_Select(JLINKARM_TIF_SWD)  returns 0x00 (0001ms, 1352ms total)
T4500 001:364 JLINK_SetSpeed(10000) (0000ms, 1353ms total)
T4500 001:364 JLINK_GetHardwareVersion()  returns 0x13880 (0000ms, 1353ms total)
T4500 001:364 JLINK_GetDLLVersion()  returns 41514 (0000ms, 1353ms total)
T4500 001:364 JLINK_GetFirmwareString(...) (0000ms, 1353ms total)
T4500 001:405 JLINK_GetDLLVersion()  returns 41514 (0001ms, 1353ms total)
T4500 001:406 JLINK_GetCompileDateTime() (0000ms, 1354ms total)
T4500 001:430 JLINK_GetFirmwareString(...) (0000ms, 1354ms total)
T4500 001:437 JLINK_GetHardwareVersion()  returns 0x13880 (0000ms, 1354ms total)
T4500 001:470 JLINK_Reset() >0x108 TIF>Found SWD-DP with ID 0x1BA01477 >0x33 TIF> >0x33 TIF> >0x35 TIF> >0x33 TIF> >0x35 TIF> >0x33 TIF> >0x33 TIF> >0x9B TIF> >0x9B TIF> >0x1D7 TIF> >0x13A TIF> >0x13A TIF>TPIU fitted. >0x13A TIF>ETM fitted. >0x13A TIF>  FPUnit: 6 code (BP) slots and 2 literal slots >0x13A TIF> >0x13A TIF> >0x1D7 TIF> >0x1D7 TIF> >0x20C TIF> >0x13A TIF> >0x13A TIF> >0x13A TIF> >0x13A TIF> >0x13A TIF> >0x1D7 TIF> >0x1D7 TIF> >0x13A TIF> >0x13A TIF> >0x11E4 TIF> >0x1D7 TIF> >0x13A TIF>
 >0x11E4 TIF> (0076ms, 1354ms total)
T4500 001:546 JLINK_JTAG_StoreRaw(..., 0x108 Bits)  returns 0x00 (0000ms, 1430ms total)
T4500 001:546 JLINK_JTAG_GetU32(BitPos = 227) >0x108 TIF>  returns 0x1BA01477 (0000ms, 1430ms total)
T4500 001:546 JLINK_GetDebugInfo(0x100) -- Value=0xE00FF003  returns 0x00 (0000ms, 1430ms total)
T4500 001:550 JLINK_ReadMem (0xE00FF000, 0x0018 Bytes, ...) -- CPU_ReadMem(24 bytes @ 0xE00FF000) -- Data:  03 F0 F0 FF 03 20 F0 FF 03 30 F0 FF 03 10 F0 FF ...  returns 0x00 (0001ms, 1430ms total)
T4500 001:551 JLINK_ReadMemU32(0xE000ED00, 0x0001 Items, ...) -- CPU_ReadMem(4 bytes @ 0xE000ED00) -- Data:  31 C2 1F 41  returns 0x01 (0000ms, 1431ms total)
T4500 001:553 JLINK_Halt()  returns 0x00 (0000ms, 1431ms total)
T4500 001:553 JLINK_IsHalted()  returns TRUE (0000ms, 1431ms total)
T4500 001:553 JLINK_ReadMemU32(0xE000EDF0, 0x0001 Items, ...) -- CPU_ReadMem(4 bytes @ 0xE000EDF0) -- Data:  03 00 03 00  returns 0x01 (0001ms, 1431ms total)
T4500 001:554 JLINK_WriteU32(0xE000EDF0, 0xA05F0003) -- CPU_WriteMem(4 bytes @ 0xE000EDF0)  returns 0x00 (0000ms, 1432ms total)
T4500 001:554 JLINK_WriteU32(0xE000EDFC, 0x01000000) -- CPU_WriteMem(4 bytes @ 0xE000EDFC)  returns 0x00 (0001ms, 1432ms total)
T4500 001:555 JLINK_ReadMemU32(0xE0002000, 0x0001 Items, ...) -- CPU_ReadMem(4 bytes @ 0xE0002000) -- Data:  60 02 00 00  returns 0x01 (0001ms, 1433ms total)
T4500 001:557 JLINK_ReadMemU32(0xE0001000, 0x0001 Items, ...) -- CPU_ReadMem(4 bytes @ 0xE0001000) -- Data:  01 00 00 40  returns 0x01 (0001ms, 1434ms total)
T4500 001:578 JLINK_ExecCommand("Device = STM32F103VE", ...)
                JLINK_ExecCommand("map ram 0x20000000 - 0x2000FFFF", ...)  returns 0x00 (0000ms, 0000ms total)
                JLINK_AddMirrorAreaEx(Addr = 0x00000000, Size = 0x00000000) (0001ms, 0000ms total)
                returns 0x00 (0001ms, 1435ms total)
T4500 001:579 JLINK_GetHWStatus(...)  returns 0x00 (0000ms, 1436ms total)
T4500 001:598 JLINK_GetNumBPUnits(Type = 0xFFFFFF00) >0x108 TIF>Found SWD-DP with ID 0x1BA01477 >0x33 TIF> >0x33 TIF> >0x35 TIF> >0x33 TIF> >0x35 TIF> >0x33 TIF> >0x33 TIF> >0x9B TIF> >0x9B TIF> >0x1D7 TIF> >0x13A TIF> >0x13A TIF>TPIU fitted. >0x13A TIF>ETM fitted. >0x13A TIF>  FPUnit: 6 code (BP) slots and 2 literal slots >0x13A TIF> >0x13A TIF>  returns 0x06 (0038ms, 1436ms total)
T4500 001:636 JLINK_GetNumBPUnits(Type = 0xF0)  returns 0x800 (0000ms, 1474ms total)
T4500 001:636 JLINK_GetNumWPUnits()  returns 0x04 (0000ms, 1474ms total)
T4500 001:664 JLINK_GetSpeed()  returns 0xFA0 (0000ms, 1474ms total)
T4500 001:669 JLINK_ReadMemU32(0xE000E004, 0x0001 Items, ...) -- CPU_ReadMem(4 bytes @ 0xE000E004) -- Data:  01 00 00 00  returns 0x01 (0001ms, 1474ms total)
T4500 001:670 JLINK_WriteMem(0xE0001000, 0x001C Bytes, ...) -- Data:  01 00 00 00 00 00 00 00 00 00 00 00 00 00 00 00 ... -- CPU_WriteMem(28 bytes @ 0xE0001000)  returns 0x1C (0001ms, 1475ms total)
T4500 001:671 JLINK_ReadMem (0xE0001000, 0x001C Bytes, ...) -- CPU_ReadMem(28 bytes @ 0xE0001000) -- Data:  01 00 00 40 00 00 00 00 00 00 00 00 00 00 00 00 ...  returns 0x00 (0000ms, 1476ms total)
T4500 001:671 JLINK_Halt()  returns 0x00 (0000ms, 1476ms total)
T4500 001:671 JLINK_IsHalted()  returns TRUE (0000ms, 1476ms total)
T4500 001:680 JLINK_WriteMem(0x20000000, 0x0164 Bytes, ...) -- Data:  00 BE 0A E0 0D 78 2D 06 68 40 08 24 40 00 00 D3 ... -- CPU_WriteMem(356 bytes @ 0x20000000)  returns 0x164 (0003ms, 1476ms total)
T4500 001:683 JLINK_WriteReg(R0, 0x08000000)  returns 0x00 (0000ms, 1479ms total)
T4500 001:683 JLINK_WriteReg(R1, 0x007A1200)  returns 0x00 (0000ms, 1479ms total)
T4500 001:683 JLINK_WriteReg(R2, 0x00000001)  returns 0x00 (0000ms, 1479ms total)
T4500 001:683 JLINK_WriteReg(R3, 0x00000000)  returns 0x00 (0000ms, 1479ms total)
T4500 001:683 JLINK_WriteReg(R4, 0x00000000)  returns 0x00 (0000ms, 1479ms total)
T4500 001:683 JLINK_WriteReg(R5, 0x00000000)  returns 0x00 (0000ms, 1479ms total)
T4500 001:683 JLINK_WriteReg(R6, 0x00000000)  returns 0x00 (0000ms, 1479ms total)
T4500 001:683 JLINK_WriteReg(R7, 0x00000000)  returns 0x00 (0000ms, 1479ms total)
T4500 001:683 JLINK_WriteReg(R8, 0x00000000)  returns 0x00 (0000ms, 1479ms total)
T4500 001:683 JLINK_WriteReg(R9, 0x20000160)  returns 0x00 (0000ms, 1479ms total)
T4500 001:683 JLINK_WriteReg(R10, 0x00000000)  returns 0x00 (0000ms, 1479ms total)
T4500 001:683 JLINK_WriteReg(R11, 0x00000000)  returns 0x00 (0000ms, 1479ms total)
T4500 001:683 JLINK_WriteReg(R12, 0x00000000)  returns 0x00 (0000ms, 1479ms total)
T4500 001:683 JLINK_WriteReg(R13, 0x20000800)  returns 0x00 (0000ms, 1479ms total)
T4500 001:683 JLINK_WriteReg(R14, 0x20000001)  returns 0x00 (0000ms, 1479ms total)
T4500 001:683 JLINK_WriteReg(R15, 0x20000038)  returns 0x00 (0000ms, 1479ms total)
T4500 001:683 JLINK_WriteReg(XPSR, 0x01000000)  returns 0x00 (0000ms, 1479ms total)
T4500 001:683 JLINK_WriteReg(MSP, 0x20000800)  returns 0x00 (0000ms, 1479ms total)
T4500 001:683 JLINK_WriteReg(PSP, 0x20000800)  returns 0x00 (0000ms, 1479ms total)
T4500 001:683 JLINK_WriteReg(CFBP, 0x00000000)  returns 0x00 (0000ms, 1479ms total)
T4500 001:683 JLINK_SetBPEx(Addr = 0x20000000, Type = 0xFFFFFFF2) -- CPU_ReadMem(2 bytes @ 0x20000000)  returns 0x00000001 (0001ms, 1479ms total)
T4500 001:684 JLINK_Go() -- CPU_WriteMem(2 bytes @ 0x20000000) -- CPU_WriteMem(4 bytes @ 0xE0002008) -- CPU_WriteMem(4 bytes @ 0xE000200C) -- CPU_WriteMem(4 bytes @ 0xE0002010) -- CPU_WriteMem(4 bytes @ 0xE0002014) -- CPU_WriteMem(4 bytes @ 0xE0002018) -- CPU_WriteMem(4 bytes @ 0xE000201C) (0006ms, 1480ms total)
T4500 001:690 JLINK_IsHalted() -- CPU_ReadMem(2 bytes @ 0x20000000)  returns TRUE (0004ms, 1486ms total)
T4500 001:694 JLINK_ReadReg(R15)  returns 0x20000000 (0000ms, 1486ms total)
T4500 001:694 JLINK_ClrBPEx(BPHandle = 0x00000001)  returns 0x00 (0000ms, 1486ms total)
T4500 001:694 JLINK_ReadReg(R0)  returns 0x00000000 (0000ms, 1486ms total)
T4500 001:695 JLINK_WriteReg(R0, 0x08000000)  returns 0x00 (0000ms, 1486ms total)
T4500 001:695 JLINK_WriteReg(R1, 0x007A1200)  returns 0x00 (0000ms, 1486ms total)
T4500 001:695 JLINK_WriteReg(R2, 0x00000001)  returns 0x00 (0000ms, 1486ms total)
T4500 001:695 JLINK_WriteReg(R3, 0x00000000)  returns 0x00 (0000ms, 1486ms total)
T4500 001:695 JLINK_WriteReg(R4, 0x00000000)  returns 0x00 (0000ms, 1486ms total)
T4500 001:695 JLINK_WriteReg(R5, 0x00000000)  returns 0x00 (0000ms, 1486ms total)
T4500 001:695 JLINK_WriteReg(R6, 0x00000000)  returns 0x00 (0000ms, 1486ms total)
T4500 001:695 JLINK_WriteReg(R7, 0x00000000)  returns 0x00 (0000ms, 1486ms total)
T4500 001:695 JLINK_WriteReg(R8, 0x00000000)  returns 0x00 (0000ms, 1486ms total)
T4500 001:695 JLINK_WriteReg(R9, 0x20000160)  returns 0x00 (0000ms, 1486ms total)
T4500 001:695 JLINK_WriteReg(R10, 0x00000000)  returns 0x00 (0000ms, 1486ms total)
T4500 001:695 JLINK_WriteReg(R11, 0x00000000)  returns 0x00 (0000ms, 1486ms total)
T4500 001:695 JLINK_WriteReg(R12, 0x00000000)  returns 0x00 (0000ms, 1486ms total)
T4500 001:695 JLINK_WriteReg(R13, 0x20000800)  returns 0x00 (0000ms, 1486ms total)
T4500 001:695 JLINK_WriteReg(R14, 0x20000001)  returns 0x00 (0000ms, 1486ms total)
T4500 001:695 JLINK_WriteReg(R15, 0x2000007C)  returns 0x00 (0000ms, 1486ms total)
T4500 001:695 JLINK_WriteReg(XPSR, 0x01000000)  returns 0x00 (0000ms, 1486ms total)
T4500 001:695 JLINK_WriteReg(MSP, 0x20000800)  returns 0x00 (0000ms, 1486ms total)
T4500 001:695 JLINK_WriteReg(PSP, 0x20000800)  returns 0x00 (0000ms, 1486ms total)
T4500 001:695 JLINK_WriteReg(CFBP, 0x00000000)  returns 0x00 (0000ms, 1486ms total)
T4500 001:695 JLINK_SetBPEx(Addr = 0x20000000, Type = 0xFFFFFFF2)  returns 0x00000002 (0000ms, 1486ms total)
T4500 001:695 JLINK_Go() -- CPU_WriteMem(4 bytes @ 0xE0002008) -- CPU_WriteMem(4 bytes @ 0xE000200C) -- CPU_WriteMem(4 bytes @ 0xE0002010) -- CPU_WriteMem(4 bytes @ 0xE0002014) -- CPU_WriteMem(4 bytes @ 0xE0002018) -- CPU_WriteMem(4 bytes @ 0xE000201C) (0004ms, 1486ms total)
T4500 001:699 JLINK_IsHalted()  returns FALSE (0001ms, 1490ms total)
T4500 001:751 JLINK_IsHalted() -- CPU_ReadMem(2 bytes @ 0x20000000)  returns TRUE (0004ms, 1490ms total)
T4500 001:755 JLINK_ReadReg(R15)  returns 0x20000000 (0000ms, 1490ms total)
T4500 001:755 JLINK_ClrBPEx(BPHandle = 0x00000002)  returns 0x00 (0000ms, 1490ms total)
T4500 001:755 JLINK_ReadReg(R0)  returns 0x00000000 (0000ms, 1490ms total)
T4500 001:811 JLINK_WriteReg(R0, 0x00000001)  returns 0x00 (0000ms, 1490ms total)
T4500 001:811 JLINK_WriteReg(R1, 0x007A1200)  returns 0x00 (0000ms, 1490ms total)
T4500 001:811 JLINK_WriteReg(R2, 0x00000001)  returns 0x00 (0000ms, 1490ms total)
T4500 001:811 JLINK_WriteReg(R3, 0x00000000)  returns 0x00 (0000ms, 1490ms total)
T4500 001:811 JLINK_WriteReg(R4, 0x00000000)  returns 0x00 (0000ms, 1490ms total)
T4500 001:811 JLINK_WriteReg(R5, 0x00000000)  returns 0x00 (0000ms, 1490ms total)
T4500 001:811 JLINK_WriteReg(R6, 0x00000000)  returns 0x00 (0000ms, 1490ms total)
T4500 001:811 JLINK_WriteReg(R7, 0x00000000)  returns 0x00 (0000ms, 1490ms total)
T4500 001:811 JLINK_WriteReg(R8, 0x00000000)  returns 0x00 (0000ms, 1490ms total)
T4500 001:811 JLINK_WriteReg(R9, 0x20000160)  returns 0x00 (0000ms, 1490ms total)
T4500 001:811 JLINK_WriteReg(R10, 0x00000000)  returns 0x00 (0000ms, 1490ms total)
T4500 001:811 JLINK_WriteReg(R11, 0x00000000)  returns 0x00 (0000ms, 1490ms total)
T4500 001:812 JLINK_WriteReg(R12, 0x00000000)  returns 0x00 (0000ms, 1490ms total)
T4500 001:812 JLINK_WriteReg(R13, 0x20000800)  returns 0x00 (0000ms, 1490ms total)
T4500 001:812 JLINK_WriteReg(R14, 0x20000001)  returns 0x00 (0000ms, 1490ms total)
T4500 001:812 JLINK_WriteReg(R15, 0x2000006A)  returns 0x00 (0000ms, 1490ms total)
T4500 001:812 JLINK_WriteReg(XPSR, 0x01000000)  returns 0x00 (0000ms, 1490ms total)
T4500 001:812 JLINK_WriteReg(MSP, 0x20000800)  returns 0x00 (0000ms, 1490ms total)
T4500 001:812 JLINK_WriteReg(PSP, 0x20000800)  returns 0x00 (0000ms, 1490ms total)
T4500 001:812 JLINK_WriteReg(CFBP, 0x00000000)  returns 0x00 (0000ms, 1490ms total)
T4500 001:812 JLINK_SetBPEx(Addr = 0x20000000, Type = 0xFFFFFFF2)  returns 0x00000003 (0000ms, 1490ms total)
T4500 001:812 JLINK_Go() -- CPU_WriteMem(4 bytes @ 0xE0002008) -- CPU_WriteMem(4 bytes @ 0xE000200C) -- CPU_WriteMem(4 bytes @ 0xE0002010) -- CPU_WriteMem(4 bytes @ 0xE0002014) -- CPU_WriteMem(4 bytes @ 0xE0002018) -- CPU_WriteMem(4 bytes @ 0xE000201C) (0003ms, 1490ms total)
T4500 001:815 JLINK_IsHalted() -- CPU_ReadMem(2 bytes @ 0x20000000)  returns TRUE (0004ms, 1493ms total)
T4500 001:819 JLINK_ReadReg(R15)  returns 0x20000000 (0000ms, 1493ms total)
T4500 001:819 JLINK_ClrBPEx(BPHandle = 0x00000003)  returns 0x00 (0000ms, 1493ms total)
T4500 001:819 JLINK_ReadReg(R0)  returns 0x00000000 (0000ms, 1493ms total)
T4500 001:831 JLINK_WriteMem(0x20000000, 0x0164 Bytes, ...) -- Data:  00 BE 0A E0 0D 78 2D 06 68 40 08 24 40 00 00 D3 ... -- CPU_WriteMem(356 bytes @ 0x20000000)  returns 0x164 (0003ms, 1493ms total)
T4500 001:834 JLINK_WriteReg(R0, 0x08000000)  returns 0x00 (0000ms, 1496ms total)
T4500 001:834 JLINK_WriteReg(R1, 0x007A1200)  returns 0x00 (0000ms, 1496ms total)
T4500 001:834 JLINK_WriteReg(R2, 0x00000002)  returns 0x00 (0000ms, 1496ms total)
T4500 001:834 JLINK_WriteReg(R3, 0x00000000)  returns 0x00 (0000ms, 1496ms total)
T4500 001:834 JLINK_WriteReg(R4, 0x00000000)  returns 0x00 (0000ms, 1496ms total)
T4500 001:834 JLINK_WriteReg(R5, 0x00000000)  returns 0x00 (0000ms, 1496ms total)
T4500 001:834 JLINK_WriteReg(R6, 0x00000000)  returns 0x00 (0000ms, 1496ms total)
T4500 001:834 JLINK_WriteReg(R7, 0x00000000)  returns 0x00 (0000ms, 1496ms total)
T4500 001:834 JLINK_WriteReg(R8, 0x00000000)  returns 0x00 (0000ms, 1496ms total)
T4500 001:834 JLINK_WriteReg(R9, 0x20000160)  returns 0x00 (0000ms, 1496ms total)
T4500 001:834 JLINK_WriteReg(R10, 0x00000000)  returns 0x00 (0000ms, 1496ms total)
T4500 001:834 JLINK_WriteReg(R11, 0x00000000)  returns 0x00 (0000ms, 1496ms total)
T4500 001:834 JLINK_WriteReg(R12, 0x00000000)  returns 0x00 (0000ms, 1496ms total)
T4500 001:834 JLINK_WriteReg(R13, 0x20000800)  returns 0x00 (0000ms, 1496ms total)
T4500 001:834 JLINK_WriteReg(R14, 0x20000001)  returns 0x00 (0000ms, 1496ms total)
T4500 001:834 JLINK_WriteReg(R15, 0x20000038)  returns 0x00 (0000ms, 1496ms total)
T4500 001:834 JLINK_WriteReg(XPSR, 0x01000000)  returns 0x00 (0000ms, 1496ms total)
T4500 001:834 JLINK_WriteReg(MSP, 0x20000800)  returns 0x00 (0000ms, 1496ms total)
T4500 001:834 JLINK_WriteReg(PSP, 0x20000800)  returns 0x00 (0000ms, 1496ms total)
T4500 001:834 JLINK_WriteReg(CFBP, 0x00000000)  returns 0x00 (0000ms, 1496ms total)
T4500 001:834 JLINK_SetBPEx(Addr = 0x20000000, Type = 0xFFFFFFF2) -- CPU_ReadMem(2 bytes @ 0x20000000)  returns 0x00000004 (0001ms, 1496ms total)
T4500 001:835 JLINK_Go() -- CPU_WriteMem(2 bytes @ 0x20000000) -- CPU_WriteMem(4 bytes @ 0xE0002008) -- CPU_WriteMem(4 bytes @ 0xE000200C) -- CPU_WriteMem(4 bytes @ 0xE0002010) -- CPU_WriteMem(4 bytes @ 0xE0002014) -- CPU_WriteMem(4 bytes @ 0xE0002018) -- CPU_WriteMem(4 bytes @ 0xE000201C) (0005ms, 1497ms total)
T4500 001:840 JLINK_IsHalted() -- CPU_ReadMem(2 bytes @ 0x20000000)  returns TRUE (0004ms, 1502ms total)
T4500 001:844 JLINK_ReadReg(R15)  returns 0x20000000 (0000ms, 1502ms total)
T4500 001:844 JLINK_ClrBPEx(BPHandle = 0x00000004)  returns 0x00 (0000ms, 1502ms total)
T4500 001:844 JLINK_ReadReg(R0)  returns 0x00000000 (0000ms, 1502ms total)
T4500 001:845 JLINK_WriteMem(0x20000164, 0x0400 Bytes, ...) -- Data:  30 7E 00 20 45 01 00 08 4D 08 00 08 0F 02 00 08 ... -- CPU_WriteMem(1024 bytes @ 0x20000164)  returns 0x400 (0006ms, 1502ms total)
T4500 001:851 JLINK_WriteReg(R0, 0x08000000)  returns 0x00 (0000ms, 1508ms total)
T4500 001:851 JLINK_WriteReg(R1, 0x00000400)  returns 0x00 (0000ms, 1508ms total)
T4500 001:851 JLINK_WriteReg(R2, 0x20000164)  returns 0x00 (0000ms, 1508ms total)
T4500 001:851 JLINK_WriteReg(R3, 0x00000000)  returns 0x00 (0000ms, 1508ms total)
T4500 001:851 JLINK_WriteReg(R4, 0x00000000)  returns 0x00 (0000ms, 1508ms total)
T4500 001:851 JLINK_WriteReg(R5, 0x00000000)  returns 0x00 (0000ms, 1508ms total)
T4500 001:851 JLINK_WriteReg(R6, 0x00000000)  returns 0x00 (0000ms, 1508ms total)
T4500 001:851 JLINK_WriteReg(R7, 0x00000000)  returns 0x00 (0000ms, 1508ms total)
T4500 001:851 JLINK_WriteReg(R8, 0x00000000)  returns 0x00 (0001ms, 1508ms total)
T4500 001:852 JLINK_WriteReg(R9, 0x20000160)  returns 0x00 (0000ms, 1509ms total)
T4500 001:852 JLINK_WriteReg(R10, 0x00000000)  returns 0x00 (0000ms, 1509ms total)
T4500 001:852 JLINK_WriteReg(R11, 0x00000000)  returns 0x00 (0000ms, 1509ms total)
T4500 001:852 JLINK_WriteReg(R12, 0x00000000)  returns 0x00 (0000ms, 1509ms total)
T4500 001:852 JLINK_WriteReg(R13, 0x20000800)  returns 0x00 (0000ms, 1509ms total)
T4500 001:852 JLINK_WriteReg(R14, 0x20000001)  returns 0x00 (0000ms, 1509ms total)
T4500 001:852 JLINK_WriteReg(R15, 0x200000F4)  returns 0x00 (0000ms, 1509ms total)
T4500 001:852 JLINK_WriteReg(XPSR, 0x01000000)  returns 0x00 (0000ms, 1509ms total)
T4500 001:852 JLINK_WriteReg(MSP, 0x20000800)  returns 0x00 (0000ms, 1509ms total)
T4500 001:852 JLINK_WriteReg(PSP, 0x20000800)  returns 0x00 (0000ms, 1509ms total)
T4500 001:852 JLINK_WriteReg(CFBP, 0x00000000)  returns 0x00 (0000ms, 1509ms total)
T4500 001:852 JLINK_SetBPEx(Addr = 0x20000000, Type = 0xFFFFFFF2)  returns 0x00000005 (0000ms, 1509ms total)
T4500 001:852 JLINK_Go() -- CPU_WriteMem(4 bytes @ 0xE0002008) -- CPU_WriteMem(4 bytes @ 0xE000200C) -- CPU_WriteMem(4 bytes @ 0xE0002010) -- CPU_WriteMem(4 bytes @ 0xE0002014) -- CPU_WriteMem(4 bytes @ 0xE0002018) -- CPU_WriteMem(4 bytes @ 0xE000201C) (0004ms, 1509ms total)
T4500 001:856 JLINK_IsHalted()  returns FALSE (0001ms, 1513ms total)
T4500 001:908 JLINK_IsHalted() -- CPU_ReadMem(2 bytes @ 0x20000000)  returns TRUE (0004ms, 1513ms total)
T4500 001:912 JLINK_ReadReg(R15)  returns 0x20000000 (0000ms, 1513ms total)
T4500 001:912 JLINK_ClrBPEx(BPHandle = 0x00000005)  returns 0x00 (0000ms, 1513ms total)
T4500 001:912 JLINK_ReadReg(R0)  returns 0x00000000 (0000ms, 1513ms total)
T4500 001:915 JLINK_WriteMem(0x20000164, 0x0400 Bytes, ...) -- Data:  10 F0 80 0F 05 D0 A4 48 01 68 A4 A0 05 F0 65 FD ... -- CPU_WriteMem(1024 bytes @ 0x20000164)  returns 0x400 (0007ms, 1513ms total)
T4500 001:922 JLINK_WriteReg(R0, 0x08000400)  returns 0x00 (0000ms, 1520ms total)
T4500 001:922 JLINK_WriteReg(R1, 0x00000400)  returns 0x00 (0000ms, 1520ms total)
T4500 001:922 JLINK_WriteReg(R2, 0x20000164)  returns 0x00 (0000ms, 1520ms total)
T4500 001:922 JLINK_WriteReg(R3, 0x00000000)  returns 0x00 (0000ms, 1520ms total)
T4500 001:922 JLINK_WriteReg(R4, 0x00000000)  returns 0x00 (0000ms, 1520ms total)
T4500 001:922 JLINK_WriteReg(R5, 0x00000000)  returns 0x00 (0000ms, 1520ms total)
T4500 001:922 JLINK_WriteReg(R6, 0x00000000)  returns 0x00 (0000ms, 1520ms total)
T4500 001:922 JLINK_WriteReg(R7, 0x00000000)  returns 0x00 (0000ms, 1520ms total)
T4500 001:922 JLINK_WriteReg(R8, 0x00000000)  returns 0x00 (0000ms, 1520ms total)
T4500 001:922 JLINK_WriteReg(R9, 0x20000160)  returns 0x00 (0000ms, 1520ms total)
T4500 001:922 JLINK_WriteReg(R10, 0x00000000)  returns 0x00 (0000ms, 1520ms total)
T4500 001:922 JLINK_WriteReg(R11, 0x00000000)  returns 0x00 (0001ms, 1520ms total)
T4500 001:923 JLINK_WriteReg(R12, 0x00000000)  returns 0x00 (0000ms, 1521ms total)
T4500 001:923 JLINK_WriteReg(R13, 0x20000800)  returns 0x00 (0000ms, 1521ms total)
T4500 001:923 JLINK_WriteReg(R14, 0x20000001)  returns 0x00 (0000ms, 1521ms total)
T4500 001:923 JLINK_WriteReg(R15, 0x200000F4)  returns 0x00 (0000ms, 1521ms total)
T4500 001:923 JLINK_WriteReg(XPSR, 0x01000000)  returns 0x00 (0000ms, 1521ms total)
T4500 001:923 JLINK_WriteReg(MSP, 0x20000800)  returns 0x00 (0000ms, 1521ms total)
T4500 001:923 JLINK_WriteReg(PSP, 0x20000800)  returns 0x00 (0000ms, 1521ms total)
T4500 001:923 JLINK_WriteReg(CFBP, 0x00000000)  returns 0x00 (0000ms, 1521ms total)
T4500 001:923 JLINK_SetBPEx(Addr = 0x20000000, Type = 0xFFFFFFF2)  returns 0x00000006 (0000ms, 1521ms total)
T4500 001:923 JLINK_Go() -- CPU_WriteMem(4 bytes @ 0xE0002008) -- CPU_WriteMem(4 bytes @ 0xE000200C) -- CPU_WriteMem(4 bytes @ 0xE0002010) -- CPU_WriteMem(4 bytes @ 0xE0002014) -- CPU_WriteMem(4 bytes @ 0xE0002018) -- CPU_WriteMem(4 bytes @ 0xE000201C) (0006ms, 1521ms total)
T4500 001:929 JLINK_IsHalted()  returns FALSE (0000ms, 1527ms total)
T4500 001:980 JLINK_IsHalted() -- CPU_ReadMem(2 bytes @ 0x20000000)  returns TRUE (0005ms, 1527ms total)
T4500 001:985 JLINK_ReadReg(R15)  returns 0x20000000 (0000ms, 1527ms total)
T4500 001:985 JLINK_ClrBPEx(BPHandle = 0x00000006)  returns 0x00 (0000ms, 1527ms total)
T4500 001:985 JLINK_ReadReg(R0)  returns 0x00000000 (0000ms, 1527ms total)
T4500 001:987 JLINK_WriteMem(0x20000164, 0x0400 Bytes, ...) -- Data:  6C 74 20 6F 6E 20 68 61 6E 64 6C 65 72 0D 0A 0D ... -- CPU_WriteMem(1024 bytes @ 0x20000164)  returns 0x400 (0007ms, 1527ms total)
T4500 001:994 JLINK_WriteReg(R0, 0x08000800)  returns 0x00 (0000ms, 1534ms total)
T4500 001:994 JLINK_WriteReg(R1, 0x00000400)  returns 0x00 (0000ms, 1534ms total)
T4500 001:994 JLINK_WriteReg(R2, 0x20000164)  returns 0x00 (0000ms, 1534ms total)
T4500 001:994 JLINK_WriteReg(R3, 0x00000000)  returns 0x00 (0000ms, 1534ms total)
T4500 001:994 JLINK_WriteReg(R4, 0x00000000)  returns 0x00 (0000ms, 1534ms total)
T4500 001:994 JLINK_WriteReg(R5, 0x00000000)  returns 0x00 (0000ms, 1534ms total)
T4500 001:994 JLINK_WriteReg(R6, 0x00000000)  returns 0x00 (0000ms, 1534ms total)
T4500 001:994 JLINK_WriteReg(R7, 0x00000000)  returns 0x00 (0000ms, 1534ms total)
T4500 001:994 JLINK_WriteReg(R8, 0x00000000)  returns 0x00 (0000ms, 1534ms total)
T4500 001:994 JLINK_WriteReg(R9, 0x20000160)  returns 0x00 (0000ms, 1534ms total)
T4500 001:994 JLINK_WriteReg(R10, 0x00000000)  returns 0x00 (0000ms, 1534ms total)
T4500 001:994 JLINK_WriteReg(R11, 0x00000000)  returns 0x00 (0000ms, 1534ms total)
T4500 001:994 JLINK_WriteReg(R12, 0x00000000)  returns 0x00 (0000ms, 1534ms total)
T4500 001:994 JLINK_WriteReg(R13, 0x20000800)  returns 0x00 (0000ms, 1534ms total)
T4500 001:994 JLINK_WriteReg(R14, 0x20000001)  returns 0x00 (0001ms, 1534ms total)
T4500 001:995 JLINK_WriteReg(R15, 0x200000F4)  returns 0x00 (0000ms, 1535ms total)
T4500 001:995 JLINK_WriteReg(XPSR, 0x01000000)  returns 0x00 (0000ms, 1535ms total)
T4500 001:995 JLINK_WriteReg(MSP, 0x20000800)  returns 0x00 (0000ms, 1535ms total)
T4500 001:995 JLINK_WriteReg(PSP, 0x20000800)  returns 0x00 (0000ms, 1535ms total)
T4500 001:995 JLINK_WriteReg(CFBP, 0x00000000)  returns 0x00 (0000ms, 1535ms total)
T4500 001:995 JLINK_SetBPEx(Addr = 0x20000000, Type = 0xFFFFFFF2)  returns 0x00000007 (0000ms, 1535ms total)
T4500 001:995 JLINK_Go() -- CPU_WriteMem(4 bytes @ 0xE0002008) -- CPU_WriteMem(4 bytes @ 0xE000200C) -- CPU_WriteMem(4 bytes @ 0xE0002010) -- CPU_WriteMem(4 bytes @ 0xE0002014) -- CPU_WriteMem(4 bytes @ 0xE0002018) -- CPU_WriteMem(4 bytes @ 0xE000201C) (0006ms, 1535ms total)
T4500 002:001 JLINK_IsHalted()  returns FALSE (0001ms, 1541ms total)
T4500 002:052 JLINK_IsHalted() -- CPU_ReadMem(2 bytes @ 0x20000000)  returns TRUE (0005ms, 1541ms total)
T4500 002:057 JLINK_ReadReg(R15)  returns 0x20000000 (0000ms, 1541ms total)
T4500 002:057 JLINK_ClrBPEx(BPHandle = 0x00000007)  returns 0x00 (0000ms, 1541ms total)
T4500 002:057 JLINK_ReadReg(R0)  returns 0x00000000 (0000ms, 1541ms total)
T4500 002:059 JLINK_WriteMem(0x20000164, 0x0400 Bytes, ...) -- Data:  2C 5D 00 20 71 4F 02 08 72 73 34 38 35 00 00 00 ... -- CPU_WriteMem(1024 bytes @ 0x20000164)  returns 0x400 (0007ms, 1541ms total)
T4500 002:066 JLINK_WriteReg(R0, 0x08000C00)  returns 0x00 (0000ms, 1548ms total)
T4500 002:066 JLINK_WriteReg(R1, 0x00000400)  returns 0x00 (0000ms, 1548ms total)
T4500 002:066 JLINK_WriteReg(R2, 0x20000164)  returns 0x00 (0000ms, 1548ms total)
T4500 002:066 JLINK_WriteReg(R3, 0x00000000)  returns 0x00 (0000ms, 1548ms total)
T4500 002:066 JLINK_WriteReg(R4, 0x00000000)  returns 0x00 (0000ms, 1548ms total)
T4500 002:066 JLINK_WriteReg(R5, 0x00000000)  returns 0x00 (0000ms, 1548ms total)
T4500 002:066 JLINK_WriteReg(R6, 0x00000000)  returns 0x00 (0000ms, 1548ms total)
T4500 002:066 JLINK_WriteReg(R7, 0x00000000)  returns 0x00 (0000ms, 1548ms total)
T4500 002:066 JLINK_WriteReg(R8, 0x00000000)  returns 0x00 (0000ms, 1548ms total)
T4500 002:066 JLINK_WriteReg(R9, 0x20000160)  returns 0x00 (0000ms, 1548ms total)
T4500 002:066 JLINK_WriteReg(R10, 0x00000000)  returns 0x00 (0000ms, 1548ms total)
T4500 002:066 JLINK_WriteReg(R11, 0x00000000)  returns 0x00 (0000ms, 1548ms total)
T4500 002:066 JLINK_WriteReg(R12, 0x00000000)  returns 0x00 (0000ms, 1548ms total)
T4500 002:066 JLINK_WriteReg(R13, 0x20000800)  returns 0x00 (0000ms, 1548ms total)
T4500 002:066 JLINK_WriteReg(R14, 0x20000001)  returns 0x00 (0000ms, 1548ms total)
T4500 002:066 JLINK_WriteReg(R15, 0x200000F4)  returns 0x00 (0000ms, 1548ms total)
T4500 002:066 JLINK_WriteReg(XPSR, 0x01000000)  returns 0x00 (0000ms, 1548ms total)
T4500 002:066 JLINK_WriteReg(MSP, 0x20000800)  returns 0x00 (0000ms, 1548ms total)
T4500 002:066 JLINK_WriteReg(PSP, 0x20000800)  returns 0x00 (0000ms, 1548ms total)
T4500 002:066 JLINK_WriteReg(CFBP, 0x00000000)  returns 0x00 (0000ms, 1548ms total)
T4500 002:066 JLINK_SetBPEx(Addr = 0x20000000, Type = 0xFFFFFFF2)  returns 0x00000008 (0000ms, 1548ms total)
T4500 002:066 JLINK_Go() -- CPU_WriteMem(4 bytes @ 0xE0002008) -- CPU_WriteMem(4 bytes @ 0xE000200C) -- CPU_WriteMem(4 bytes @ 0xE0002010) -- CPU_WriteMem(4 bytes @ 0xE0002014) -- CPU_WriteMem(4 bytes @ 0xE0002018) -- CPU_WriteMem(4 bytes @ 0xE000201C) (0004ms, 1548ms total)
T4500 002:070 JLINK_IsHalted()  returns FALSE (0001ms, 1552ms total)
T4500 002:122 JLINK_IsHalted() -- CPU_ReadMem(2 bytes @ 0x20000000)  returns TRUE (0004ms, 1552ms total)
T4500 002:126 JLINK_ReadReg(R15)  returns 0x20000000 (0000ms, 1552ms total)
T4500 002:126 JLINK_ClrBPEx(BPHandle = 0x00000008)  returns 0x00 (0000ms, 1552ms total)
T4500 002:126 JLINK_ReadReg(R0)  returns 0x00000000 (0000ms, 1552ms total)
T4500 002:126 JLINK_WriteMem(0x20000164, 0x0400 Bytes, ...) -- Data:  0A 00 00 00 55 6E 61 62 6C 65 20 74 6F 20 62 69 ... -- CPU_WriteMem(1024 bytes @ 0x20000164)  returns 0x400 (0007ms, 1552ms total)
T4500 002:133 JLINK_WriteReg(R0, 0x08001000)  returns 0x00 (0000ms, 1559ms total)
T4500 002:133 JLINK_WriteReg(R1, 0x00000400)  returns 0x00 (0000ms, 1559ms total)
T4500 002:133 JLINK_WriteReg(R2, 0x20000164)  returns 0x00 (0000ms, 1559ms total)
T4500 002:133 JLINK_WriteReg(R3, 0x00000000)  returns 0x00 (0000ms, 1559ms total)
T4500 002:133 JLINK_WriteReg(R4, 0x00000000)  returns 0x00 (0000ms, 1559ms total)
T4500 002:133 JLINK_WriteReg(R5, 0x00000000)  returns 0x00 (0000ms, 1559ms total)
T4500 002:133 JLINK_WriteReg(R6, 0x00000000)  returns 0x00 (0000ms, 1559ms total)
T4500 002:133 JLINK_WriteReg(R7, 0x00000000)  returns 0x00 (0000ms, 1559ms total)
T4500 002:133 JLINK_WriteReg(R8, 0x00000000)  returns 0x00 (0000ms, 1559ms total)
T4500 002:133 JLINK_WriteReg(R9, 0x20000160)  returns 0x00 (0000ms, 1559ms total)
T4500 002:133 JLINK_WriteReg(R10, 0x00000000)  returns 0x00 (0000ms, 1559ms total)
T4500 002:133 JLINK_WriteReg(R11, 0x00000000)  returns 0x00 (0000ms, 1559ms total)
T4500 002:133 JLINK_WriteReg(R12, 0x00000000)  returns 0x00 (0000ms, 1559ms total)
T4500 002:133 JLINK_WriteReg(R13, 0x20000800)  returns 0x00 (0000ms, 1559ms total)
T4500 002:133 JLINK_WriteReg(R14, 0x20000001)  returns 0x00 (0000ms, 1559ms total)
T4500 002:133 JLINK_WriteReg(R15, 0x200000F4)  returns 0x00 (0000ms, 1559ms total)
T4500 002:133 JLINK_WriteReg(XPSR, 0x01000000)  returns 0x00 (0000ms, 1559ms total)
T4500 002:133 JLINK_WriteReg(MSP, 0x20000800)  returns 0x00 (0000ms, 1559ms total)
T4500 002:133 JLINK_WriteReg(PSP, 0x20000800)  returns 0x00 (0000ms, 1559ms total)
T4500 002:133 JLINK_WriteReg(CFBP, 0x00000000)  returns 0x00 (0000ms, 1559ms total)
T4500 002:133 JLINK_SetBPEx(Addr = 0x20000000, Type = 0xFFFFFFF2)  returns 0x00000009 (0000ms, 1559ms total)
T4500 002:133 JLINK_Go() -- CPU_WriteMem(4 bytes @ 0xE0002008) -- CPU_WriteMem(4 bytes @ 0xE000200C) -- CPU_WriteMem(4 bytes @ 0xE0002010) -- CPU_WriteMem(4 bytes @ 0xE0002014) -- CPU_WriteMem(4 bytes @ 0xE0002018) -- CPU_WriteMem(4 bytes @ 0xE000201C) (0004ms, 1559ms total)
T4500 002:137 JLINK_IsHalted()  returns FALSE (0000ms, 1563ms total)
T4500 002:188 JLINK_IsHalted() -- CPU_ReadMem(2 bytes @ 0x20000000)  returns TRUE (0004ms, 1563ms total)
T4500 002:192 JLINK_ReadReg(R15)  returns 0x20000000 (0000ms, 1563ms total)
T4500 002:192 JLINK_ClrBPEx(BPHandle = 0x00000009)  returns 0x00 (0000ms, 1563ms total)
T4500 002:192 JLINK_ReadReg(R0)  returns 0x00000000 (0000ms, 1563ms total)
T4500 002:192 JLINK_WriteMem(0x20000164, 0x0400 Bytes, ...) -- Data:  00 22 11 46 50 48 11 F0 A3 FD 81 46 B9 F1 00 0F ... -- CPU_WriteMem(1024 bytes @ 0x20000164)  returns 0x400 (0007ms, 1563ms total)
T4500 002:199 JLINK_WriteReg(R0, 0x08001400)  returns 0x00 (0000ms, 1570ms total)
T4500 002:199 JLINK_WriteReg(R1, 0x00000400)  returns 0x00 (0000ms, 1570ms total)
T4500 002:199 JLINK_WriteReg(R2, 0x20000164)  returns 0x00 (0000ms, 1570ms total)
T4500 002:199 JLINK_WriteReg(R3, 0x00000000)  returns 0x00 (0000ms, 1570ms total)
T4500 002:199 JLINK_WriteReg(R4, 0x00000000)  returns 0x00 (0000ms, 1570ms total)
T4500 002:199 JLINK_WriteReg(R5, 0x00000000)  returns 0x00 (0000ms, 1570ms total)
T4500 002:199 JLINK_WriteReg(R6, 0x00000000)  returns 0x00 (0000ms, 1570ms total)
T4500 002:199 JLINK_WriteReg(R7, 0x00000000)  returns 0x00 (0000ms, 1570ms total)
T4500 002:199 JLINK_WriteReg(R8, 0x00000000)  returns 0x00 (0000ms, 1570ms total)
T4500 002:199 JLINK_WriteReg(R9, 0x20000160)  returns 0x00 (0000ms, 1570ms total)
T4500 002:199 JLINK_WriteReg(R10, 0x00000000)  returns 0x00 (0000ms, 1570ms total)
T4500 002:199 JLINK_WriteReg(R11, 0x00000000)  returns 0x00 (0000ms, 1570ms total)
T4500 002:199 JLINK_WriteReg(R12, 0x00000000)  returns 0x00 (0000ms, 1570ms total)
T4500 002:199 JLINK_WriteReg(R13, 0x20000800)  returns 0x00 (0000ms, 1570ms total)
T4500 002:199 JLINK_WriteReg(R14, 0x20000001)  returns 0x00 (0000ms, 1570ms total)
T4500 002:199 JLINK_WriteReg(R15, 0x200000F4)  returns 0x00 (0000ms, 1570ms total)
T4500 002:199 JLINK_WriteReg(XPSR, 0x01000000)  returns 0x00 (0000ms, 1570ms total)
T4500 002:199 JLINK_WriteReg(MSP, 0x20000800)  returns 0x00 (0000ms, 1570ms total)
T4500 002:199 JLINK_WriteReg(PSP, 0x20000800)  returns 0x00 (0000ms, 1570ms total)
T4500 002:199 JLINK_WriteReg(CFBP, 0x00000000)  returns 0x00 (0000ms, 1570ms total)
T4500 002:199 JLINK_SetBPEx(Addr = 0x20000000, Type = 0xFFFFFFF2)  returns 0x0000000A (0000ms, 1570ms total)
T4500 002:199 JLINK_Go() -- CPU_WriteMem(4 bytes @ 0xE0002008) -- CPU_WriteMem(4 bytes @ 0xE000200C) -- CPU_WriteMem(4 bytes @ 0xE0002010) -- CPU_WriteMem(4 bytes @ 0xE0002014) -- CPU_WriteMem(4 bytes @ 0xE0002018) -- CPU_WriteMem(4 bytes @ 0xE000201C) (0005ms, 1570ms total)
T4500 002:204 JLINK_IsHalted()  returns FALSE (0000ms, 1575ms total)
T4500 002:255 JLINK_IsHalted() -- CPU_ReadMem(2 bytes @ 0x20000000)  returns TRUE (0004ms, 1575ms total)
T4500 002:259 JLINK_ReadReg(R15)  returns 0x20000000 (0000ms, 1575ms total)
T4500 002:259 JLINK_ClrBPEx(BPHandle = 0x0000000A)  returns 0x00 (0000ms, 1575ms total)
T4500 002:259 JLINK_ReadReg(R0)  returns 0x00000000 (0000ms, 1575ms total)
T4500 002:259 JLINK_WriteMem(0x20000164, 0x0400 Bytes, ...) -- Data:  05 F4 05 78 4F EA 65 15 4F F0 E0 26 06 EB 85 05 ... -- CPU_WriteMem(1024 bytes @ 0x20000164)  returns 0x400 (0007ms, 1575ms total)
T4500 002:266 JLINK_WriteReg(R0, 0x08001800)  returns 0x00 (0000ms, 1582ms total)
T4500 002:266 JLINK_WriteReg(R1, 0x00000400)  returns 0x00 (0000ms, 1582ms total)
T4500 002:266 JLINK_WriteReg(R2, 0x20000164)  returns 0x00 (0000ms, 1582ms total)
T4500 002:266 JLINK_WriteReg(R3, 0x00000000)  returns 0x00 (0000ms, 1582ms total)
T4500 002:266 JLINK_WriteReg(R4, 0x00000000)  returns 0x00 (0000ms, 1582ms total)
T4500 002:266 JLINK_WriteReg(R5, 0x00000000)  returns 0x00 (0000ms, 1582ms total)
T4500 002:266 JLINK_WriteReg(R6, 0x00000000)  returns 0x00 (0000ms, 1582ms total)
T4500 002:266 JLINK_WriteReg(R7, 0x00000000)  returns 0x00 (0000ms, 1582ms total)
T4500 002:266 JLINK_WriteReg(R8, 0x00000000)  returns 0x00 (0000ms, 1582ms total)
T4500 002:266 JLINK_WriteReg(R9, 0x20000160)  returns 0x00 (0000ms, 1582ms total)
T4500 002:266 JLINK_WriteReg(R10, 0x00000000)  returns 0x00 (0000ms, 1582ms total)
T4500 002:266 JLINK_WriteReg(R11, 0x00000000)  returns 0x00 (0000ms, 1582ms total)
T4500 002:266 JLINK_WriteReg(R12, 0x00000000)  returns 0x00 (0000ms, 1582ms total)
T4500 002:266 JLINK_WriteReg(R13, 0x20000800)  returns 0x00 (0000ms, 1582ms total)
T4500 002:266 JLINK_WriteReg(R14, 0x20000001)  returns 0x00 (0000ms, 1582ms total)
T4500 002:266 JLINK_WriteReg(R15, 0x200000F4)  returns 0x00 (0000ms, 1582ms total)
T4500 002:266 JLINK_WriteReg(XPSR, 0x01000000)  returns 0x00 (0000ms, 1582ms total)
T4500 002:266 JLINK_WriteReg(MSP, 0x20000800)  returns 0x00 (0000ms, 1582ms total)
T4500 002:266 JLINK_WriteReg(PSP, 0x20000800)  returns 0x00 (0000ms, 1582ms total)
T4500 002:266 JLINK_WriteReg(CFBP, 0x00000000)  returns 0x00 (0000ms, 1582ms total)
T4500 002:266 JLINK_SetBPEx(Addr = 0x20000000, Type = 0xFFFFFFF2)  returns 0x0000000B (0000ms, 1582ms total)
T4500 002:266 JLINK_Go() -- CPU_WriteMem(4 bytes @ 0xE0002008) -- CPU_WriteMem(4 bytes @ 0xE000200C) -- CPU_WriteMem(4 bytes @ 0xE0002010) -- CPU_WriteMem(4 bytes @ 0xE0002014) -- CPU_WriteMem(4 bytes @ 0xE0002018) -- CPU_WriteMem(4 bytes @ 0xE000201C) (0004ms, 1582ms total)
T4500 002:270 JLINK_IsHalted()  returns FALSE (0001ms, 1586ms total)
T4500 002:321 JLINK_IsHalted() -- CPU_ReadMem(2 bytes @ 0x20000000)  returns TRUE (0004ms, 1586ms total)
T4500 002:325 JLINK_ReadReg(R15)  returns 0x20000000 (0000ms, 1586ms total)
T4500 002:325 JLINK_ClrBPEx(BPHandle = 0x0000000B)  returns 0x00 (0000ms, 1586ms total)
T4500 002:325 JLINK_ReadReg(R0)  returns 0x00000000 (0000ms, 1586ms total)
T4500 002:325 JLINK_WriteMem(0x20000164, 0x0400 Bytes, ...) -- Data:  01 61 00 E0 41 61 70 47 C1 60 70 47 4F F4 80 32 ... -- CPU_WriteMem(1024 bytes @ 0x20000164)  returns 0x400 (0007ms, 1586ms total)
T4500 002:332 JLINK_WriteReg(R0, 0x08001C00)  returns 0x00 (0000ms, 1593ms total)
T4500 002:332 JLINK_WriteReg(R1, 0x00000400)  returns 0x00 (0000ms, 1593ms total)
T4500 002:332 JLINK_WriteReg(R2, 0x20000164)  returns 0x00 (0000ms, 1593ms total)
T4500 002:332 JLINK_WriteReg(R3, 0x00000000)  returns 0x00 (0000ms, 1593ms total)
T4500 002:332 JLINK_WriteReg(R4, 0x00000000)  returns 0x00 (0000ms, 1593ms total)
T4500 002:332 JLINK_WriteReg(R5, 0x00000000)  returns 0x00 (0000ms, 1593ms total)
T4500 002:332 JLINK_WriteReg(R6, 0x00000000)  returns 0x00 (0000ms, 1593ms total)
T4500 002:332 JLINK_WriteReg(R7, 0x00000000)  returns 0x00 (0000ms, 1593ms total)
T4500 002:332 JLINK_WriteReg(R8, 0x00000000)  returns 0x00 (0000ms, 1593ms total)
T4500 002:332 JLINK_WriteReg(R9, 0x20000160)  returns 0x00 (0000ms, 1593ms total)
T4500 002:332 JLINK_WriteReg(R10, 0x00000000)  returns 0x00 (0000ms, 1593ms total)
T4500 002:332 JLINK_WriteReg(R11, 0x00000000)  returns 0x00 (0000ms, 1593ms total)
T4500 002:332 JLINK_WriteReg(R12, 0x00000000)  returns 0x00 (0000ms, 1593ms total)
T4500 002:332 JLINK_WriteReg(R13, 0x20000800)  returns 0x00 (0000ms, 1593ms total)
T4500 002:332 JLINK_WriteReg(R14, 0x20000001)  returns 0x00 (0000ms, 1593ms total)
T4500 002:332 JLINK_WriteReg(R15, 0x200000F4)  returns 0x00 (0000ms, 1593ms total)
T4500 002:332 JLINK_WriteReg(XPSR, 0x01000000)  returns 0x00 (0000ms, 1593ms total)
T4500 002:332 JLINK_WriteReg(MSP, 0x20000800)  returns 0x00 (0000ms, 1593ms total)
T4500 002:332 JLINK_WriteReg(PSP, 0x20000800)  returns 0x00 (0000ms, 1593ms total)
T4500 002:332 JLINK_WriteReg(CFBP, 0x00000000)  returns 0x00 (0000ms, 1593ms total)
T4500 002:332 JLINK_SetBPEx(Addr = 0x20000000, Type = 0xFFFFFFF2)  returns 0x0000000C (0000ms, 1593ms total)
T4500 002:332 JLINK_Go() -- CPU_WriteMem(4 bytes @ 0xE0002008) -- CPU_WriteMem(4 bytes @ 0xE000200C) -- CPU_WriteMem(4 bytes @ 0xE0002010) -- CPU_WriteMem(4 bytes @ 0xE0002014) -- CPU_WriteMem(4 bytes @ 0xE0002018) -- CPU_WriteMem(4 bytes @ 0xE000201C) (0004ms, 1593ms total)
T4500 002:336 JLINK_IsHalted()  returns FALSE (0001ms, 1597ms total)
T4500 002:388 JLINK_IsHalted() -- CPU_ReadMem(2 bytes @ 0x20000000)  returns TRUE (0004ms, 1597ms total)
T4500 002:392 JLINK_ReadReg(R15)  returns 0x20000000 (0000ms, 1597ms total)
T4500 002:392 JLINK_ClrBPEx(BPHandle = 0x0000000C)  returns 0x00 (0000ms, 1597ms total)
T4500 002:392 JLINK_ReadReg(R0)  returns 0x00000000 (0000ms, 1597ms total)
T4500 002:392 JLINK_WriteMem(0x20000164, 0x0400 Bytes, ...) -- Data:  29 4B 5A 61 70 47 29 B1 27 4A 92 69 02 43 26 4B ... -- CPU_WriteMem(1024 bytes @ 0x20000164)  returns 0x400 (0006ms, 1597ms total)
T4500 002:398 JLINK_WriteReg(R0, 0x08002000)  returns 0x00 (0000ms, 1603ms total)
T4500 002:398 JLINK_WriteReg(R1, 0x00000400)  returns 0x00 (0000ms, 1603ms total)
T4500 002:398 JLINK_WriteReg(R2, 0x20000164)  returns 0x00 (0000ms, 1603ms total)
T4500 002:398 JLINK_WriteReg(R3, 0x00000000)  returns 0x00 (0000ms, 1603ms total)
T4500 002:398 JLINK_WriteReg(R4, 0x00000000)  returns 0x00 (0000ms, 1603ms total)
T4500 002:398 JLINK_WriteReg(R5, 0x00000000)  returns 0x00 (0000ms, 1603ms total)
T4500 002:398 JLINK_WriteReg(R6, 0x00000000)  returns 0x00 (0000ms, 1603ms total)
T4500 002:398 JLINK_WriteReg(R7, 0x00000000)  returns 0x00 (0000ms, 1603ms total)
T4500 002:398 JLINK_WriteReg(R8, 0x00000000)  returns 0x00 (0000ms, 1603ms total)
T4500 002:398 JLINK_WriteReg(R9, 0x20000160)  returns 0x00 (0000ms, 1603ms total)
T4500 002:398 JLINK_WriteReg(R10, 0x00000000)  returns 0x00 (0000ms, 1603ms total)
T4500 002:398 JLINK_WriteReg(R11, 0x00000000)  returns 0x00 (0000ms, 1603ms total)
T4500 002:398 JLINK_WriteReg(R12, 0x00000000)  returns 0x00 (0000ms, 1603ms total)
T4500 002:399 JLINK_WriteReg(R13, 0x20000800)  returns 0x00 (0000ms, 1604ms total)
T4500 002:399 JLINK_WriteReg(R14, 0x20000001)  returns 0x00 (0000ms, 1604ms total)
T4500 002:399 JLINK_WriteReg(R15, 0x200000F4)  returns 0x00 (0000ms, 1604ms total)
T4500 002:399 JLINK_WriteReg(XPSR, 0x01000000)  returns 0x00 (0000ms, 1604ms total)
T4500 002:399 JLINK_WriteReg(MSP, 0x20000800)  returns 0x00 (0000ms, 1604ms total)
T4500 002:399 JLINK_WriteReg(PSP, 0x20000800)  returns 0x00 (0000ms, 1604ms total)
T4500 002:399 JLINK_WriteReg(CFBP, 0x00000000)  returns 0x00 (0000ms, 1604ms total)
T4500 002:399 JLINK_SetBPEx(Addr = 0x20000000, Type = 0xFFFFFFF2)  returns 0x0000000D (0000ms, 1604ms total)
T4500 002:399 JLINK_Go() -- CPU_WriteMem(4 bytes @ 0xE0002008) -- CPU_WriteMem(4 bytes @ 0xE000200C) -- CPU_WriteMem(4 bytes @ 0xE0002010) -- CPU_WriteMem(4 bytes @ 0xE0002014) -- CPU_WriteMem(4 bytes @ 0xE0002018) -- CPU_WriteMem(4 bytes @ 0xE000201C) (0004ms, 1604ms total)
T4500 002:403 JLINK_IsHalted()  returns FALSE (0000ms, 1608ms total)
T4500 002:454 JLINK_IsHalted() -- CPU_ReadMem(2 bytes @ 0x20000000)  returns TRUE (0004ms, 1608ms total)
T4500 002:458 JLINK_ReadReg(R15)  returns 0x20000000 (0000ms, 1608ms total)
T4500 002:458 JLINK_ClrBPEx(BPHandle = 0x0000000D)  returns 0x00 (0000ms, 1608ms total)
T4500 002:458 JLINK_ReadReg(R0)  returns 0x00000000 (0001ms, 1608ms total)
T4500 002:459 JLINK_WriteMem(0x20000164, 0x0400 Bytes, ...) -- Data:  E0 14 FF F7 1A FE C4 E0 B4 F1 80 4F 08 D1 01 21 ... -- CPU_WriteMem(1024 bytes @ 0x20000164)  returns 0x400 (0006ms, 1609ms total)
T4500 002:465 JLINK_WriteReg(R0, 0x08002400)  returns 0x00 (0000ms, 1615ms total)
T4500 002:465 JLINK_WriteReg(R1, 0x00000400)  returns 0x00 (0000ms, 1615ms total)
T4500 002:465 JLINK_WriteReg(R2, 0x20000164)  returns 0x00 (0000ms, 1615ms total)
T4500 002:465 JLINK_WriteReg(R3, 0x00000000)  returns 0x00 (0000ms, 1615ms total)
T4500 002:465 JLINK_WriteReg(R4, 0x00000000)  returns 0x00 (0000ms, 1615ms total)
T4500 002:465 JLINK_WriteReg(R5, 0x00000000)  returns 0x00 (0000ms, 1615ms total)
T4500 002:465 JLINK_WriteReg(R6, 0x00000000)  returns 0x00 (0000ms, 1615ms total)
T4500 002:465 JLINK_WriteReg(R7, 0x00000000)  returns 0x00 (0000ms, 1615ms total)
T4500 002:465 JLINK_WriteReg(R8, 0x00000000)  returns 0x00 (0000ms, 1615ms total)
T4500 002:465 JLINK_WriteReg(R9, 0x20000160)  returns 0x00 (0000ms, 1615ms total)
T4500 002:465 JLINK_WriteReg(R10, 0x00000000)  returns 0x00 (0000ms, 1615ms total)
T4500 002:465 JLINK_WriteReg(R11, 0x00000000)  returns 0x00 (0000ms, 1615ms total)
T4500 002:465 JLINK_WriteReg(R12, 0x00000000)  returns 0x00 (0000ms, 1615ms total)
T4500 002:465 JLINK_WriteReg(R13, 0x20000800)  returns 0x00 (0000ms, 1615ms total)
T4500 002:465 JLINK_WriteReg(R14, 0x20000001)  returns 0x00 (0000ms, 1615ms total)
T4500 002:465 JLINK_WriteReg(R15, 0x200000F4)  returns 0x00 (0000ms, 1615ms total)
T4500 002:465 JLINK_WriteReg(XPSR, 0x01000000)  returns 0x00 (0000ms, 1615ms total)
T4500 002:465 JLINK_WriteReg(MSP, 0x20000800)  returns 0x00 (0000ms, 1615ms total)
T4500 002:465 JLINK_WriteReg(PSP, 0x20000800)  returns 0x00 (0000ms, 1615ms total)
T4500 002:465 JLINK_WriteReg(CFBP, 0x00000000)  returns 0x00 (0000ms, 1615ms total)
T4500 002:465 JLINK_SetBPEx(Addr = 0x20000000, Type = 0xFFFFFFF2)  returns 0x0000000E (0000ms, 1615ms total)
T4500 002:465 JLINK_Go() -- CPU_WriteMem(4 bytes @ 0xE0002008) -- CPU_WriteMem(4 bytes @ 0xE000200C) -- CPU_WriteMem(4 bytes @ 0xE0002010) -- CPU_WriteMem(4 bytes @ 0xE0002014) -- CPU_WriteMem(4 bytes @ 0xE0002018) -- CPU_WriteMem(4 bytes @ 0xE000201C) (0004ms, 1615ms total)
T4500 002:469 JLINK_IsHalted()  returns FALSE (0001ms, 1619ms total)
T4500 002:521 JLINK_IsHalted() -- CPU_ReadMem(2 bytes @ 0x20000000)  returns TRUE (0005ms, 1619ms total)
T4500 002:526 JLINK_ReadReg(R15)  returns 0x20000000 (0000ms, 1619ms total)
T4500 002:526 JLINK_ClrBPEx(BPHandle = 0x0000000E)  returns 0x00 (0000ms, 1619ms total)
T4500 002:526 JLINK_ReadReg(R0)  returns 0x00000000 (0000ms, 1619ms total)
T4500 002:526 JLINK_WriteMem(0x20000164, 0x0400 Bytes, ...) -- Data:  00 10 00 40 00 14 00 40 00 34 01 40 00 4C 01 40 ... -- CPU_WriteMem(1024 bytes @ 0x20000164)  returns 0x400 (0006ms, 1619ms total)
T4500 002:532 JLINK_WriteReg(R0, 0x08002800)  returns 0x00 (0000ms, 1625ms total)
T4500 002:532 JLINK_WriteReg(R1, 0x00000400)  returns 0x00 (0000ms, 1625ms total)
T4500 002:532 JLINK_WriteReg(R2, 0x20000164)  returns 0x00 (0000ms, 1625ms total)
T4500 002:532 JLINK_WriteReg(R3, 0x00000000)  returns 0x00 (0000ms, 1625ms total)
T4500 002:532 JLINK_WriteReg(R4, 0x00000000)  returns 0x00 (0000ms, 1625ms total)
T4500 002:532 JLINK_WriteReg(R5, 0x00000000)  returns 0x00 (0000ms, 1625ms total)
T4500 002:532 JLINK_WriteReg(R6, 0x00000000)  returns 0x00 (0000ms, 1625ms total)
T4500 002:532 JLINK_WriteReg(R7, 0x00000000)  returns 0x00 (0000ms, 1625ms total)
T4500 002:532 JLINK_WriteReg(R8, 0x00000000)  returns 0x00 (0000ms, 1625ms total)
T4500 002:532 JLINK_WriteReg(R9, 0x20000160)  returns 0x00 (0000ms, 1625ms total)
T4500 002:532 JLINK_WriteReg(R10, 0x00000000)  returns 0x00 (0000ms, 1625ms total)
T4500 002:532 JLINK_WriteReg(R11, 0x00000000)  returns 0x00 (0000ms, 1625ms total)
T4500 002:532 JLINK_WriteReg(R12, 0x00000000)  returns 0x00 (0000ms, 1625ms total)
T4500 002:532 JLINK_WriteReg(R13, 0x20000800)  returns 0x00 (0000ms, 1625ms total)
T4500 002:532 JLINK_WriteReg(R14, 0x20000001)  returns 0x00 (0000ms, 1625ms total)
T4500 002:532 JLINK_WriteReg(R15, 0x200000F4)  returns 0x00 (0000ms, 1625ms total)
T4500 002:532 JLINK_WriteReg(XPSR, 0x01000000)  returns 0x00 (0000ms, 1625ms total)
T4500 002:532 JLINK_WriteReg(MSP, 0x20000800)  returns 0x00 (0000ms, 1625ms total)
T4500 002:532 JLINK_WriteReg(PSP, 0x20000800)  returns 0x00 (0000ms, 1625ms total)
T4500 002:532 JLINK_WriteReg(CFBP, 0x00000000)  returns 0x00 (0000ms, 1625ms total)
T4500 002:532 JLINK_SetBPEx(Addr = 0x20000000, Type = 0xFFFFFFF2)  returns 0x0000000F (0000ms, 1625ms total)
T4500 002:533 JLINK_Go() -- CPU_WriteMem(4 bytes @ 0xE0002008) -- CPU_WriteMem(4 bytes @ 0xE000200C) -- CPU_WriteMem(4 bytes @ 0xE0002010) -- CPU_WriteMem(4 bytes @ 0xE0002014) -- CPU_WriteMem(4 bytes @ 0xE0002018) -- CPU_WriteMem(4 bytes @ 0xE000201C) (0003ms, 1626ms total)
T4500 002:536 JLINK_IsHalted()  returns FALSE (0001ms, 1629ms total)
T4500 002:588 JLINK_IsHalted() -- CPU_ReadMem(2 bytes @ 0x20000000)  returns TRUE (0005ms, 1629ms total)
T4500 002:593 JLINK_ReadReg(R15)  returns 0x20000000 (0000ms, 1629ms total)
T4500 002:593 JLINK_ClrBPEx(BPHandle = 0x0000000F)  returns 0x00 (0000ms, 1629ms total)
T4500 002:593 JLINK_ReadReg(R0)  returns 0x00000000 (0000ms, 1629ms total)
T4500 002:593 JLINK_WriteMem(0x20000164, 0x0400 Bytes, ...) -- Data:  4F F6 FE 73 1A 40 02 80 70 47 89 B1 B0 F8 44 20 ... -- CPU_WriteMem(1024 bytes @ 0x20000164)  returns 0x400 (0007ms, 1629ms total)
T4500 002:600 JLINK_WriteReg(R0, 0x08002C00)  returns 0x00 (0000ms, 1636ms total)
T4500 002:600 JLINK_WriteReg(R1, 0x00000400)  returns 0x00 (0000ms, 1636ms total)
T4500 002:600 JLINK_WriteReg(R2, 0x20000164)  returns 0x00 (0000ms, 1636ms total)
T4500 002:600 JLINK_WriteReg(R3, 0x00000000)  returns 0x00 (0000ms, 1636ms total)
T4500 002:600 JLINK_WriteReg(R4, 0x00000000)  returns 0x00 (0000ms, 1636ms total)
T4500 002:600 JLINK_WriteReg(R5, 0x00000000)  returns 0x00 (0000ms, 1636ms total)
T4500 002:600 JLINK_WriteReg(R6, 0x00000000)  returns 0x00 (0000ms, 1636ms total)
T4500 002:600 JLINK_WriteReg(R7, 0x00000000)  returns 0x00 (0000ms, 1636ms total)
T4500 002:600 JLINK_WriteReg(R8, 0x00000000)  returns 0x00 (0000ms, 1636ms total)
T4500 002:600 JLINK_WriteReg(R9, 0x20000160)  returns 0x00 (0000ms, 1636ms total)
T4500 002:600 JLINK_WriteReg(R10, 0x00000000)  returns 0x00 (0000ms, 1636ms total)
T4500 002:600 JLINK_WriteReg(R11, 0x00000000)  returns 0x00 (0000ms, 1636ms total)
T4500 002:600 JLINK_WriteReg(R12, 0x00000000)  returns 0x00 (0000ms, 1636ms total)
T4500 002:600 JLINK_WriteReg(R13, 0x20000800)  returns 0x00 (0000ms, 1636ms total)
T4500 002:600 JLINK_WriteReg(R14, 0x20000001)  returns 0x00 (0000ms, 1636ms total)
T4500 002:600 JLINK_WriteReg(R15, 0x200000F4)  returns 0x00 (0000ms, 1636ms total)
T4500 002:600 JLINK_WriteReg(XPSR, 0x01000000)  returns 0x00 (0000ms, 1636ms total)
T4500 002:600 JLINK_WriteReg(MSP, 0x20000800)  returns 0x00 (0000ms, 1636ms total)
T4500 002:600 JLINK_WriteReg(PSP, 0x20000800)  returns 0x00 (0000ms, 1636ms total)
T4500 002:600 JLINK_WriteReg(CFBP, 0x00000000)  returns 0x00 (0000ms, 1636ms total)
T4500 002:600 JLINK_SetBPEx(Addr = 0x20000000, Type = 0xFFFFFFF2)  returns 0x00000010 (0000ms, 1636ms total)
T4500 002:600 JLINK_Go() -- CPU_WriteMem(4 bytes @ 0xE0002008) -- CPU_WriteMem(4 bytes @ 0xE000200C) -- CPU_WriteMem(4 bytes @ 0xE0002010) -- CPU_WriteMem(4 bytes @ 0xE0002014) -- CPU_WriteMem(4 bytes @ 0xE0002018) -- CPU_WriteMem(4 bytes @ 0xE000201C) (0005ms, 1636ms total)
T4500 002:605 JLINK_IsHalted()  returns FALSE (0001ms, 1641ms total)
T4500 002:657 JLINK_IsHalted() -- CPU_ReadMem(2 bytes @ 0x20000000)  returns TRUE (0004ms, 1641ms total)
T4500 002:661 JLINK_ReadReg(R15)  returns 0x20000000 (0000ms, 1641ms total)
T4500 002:661 JLINK_ClrBPEx(BPHandle = 0x00000010)  returns 0x00 (0000ms, 1641ms total)
T4500 002:661 JLINK_ReadReg(R0)  returns 0x00000000 (0000ms, 1641ms total)
T4500 002:661 JLINK_WriteMem(0x20000164, 0x0400 Bytes, ...) -- Data:  04 84 30 BD 30 B5 00 23 04 24 8C 40 A3 B2 04 8C ... -- CPU_WriteMem(1024 bytes @ 0x20000164)  returns 0x400 (0007ms, 1641ms total)
T4500 002:668 JLINK_WriteReg(R0, 0x08003000)  returns 0x00 (0000ms, 1648ms total)
T4500 002:668 JLINK_WriteReg(R1, 0x00000400)  returns 0x00 (0000ms, 1648ms total)
T4500 002:668 JLINK_WriteReg(R2, 0x20000164)  returns 0x00 (0000ms, 1648ms total)
T4500 002:668 JLINK_WriteReg(R3, 0x00000000)  returns 0x00 (0000ms, 1648ms total)
T4500 002:668 JLINK_WriteReg(R4, 0x00000000)  returns 0x00 (0000ms, 1648ms total)
T4500 002:668 JLINK_WriteReg(R5, 0x00000000)  returns 0x00 (0000ms, 1648ms total)
T4500 002:668 JLINK_WriteReg(R6, 0x00000000)  returns 0x00 (0000ms, 1648ms total)
T4500 002:668 JLINK_WriteReg(R7, 0x00000000)  returns 0x00 (0000ms, 1648ms total)
T4500 002:668 JLINK_WriteReg(R8, 0x00000000)  returns 0x00 (0000ms, 1648ms total)
T4500 002:668 JLINK_WriteReg(R9, 0x20000160)  returns 0x00 (0000ms, 1648ms total)
T4500 002:668 JLINK_WriteReg(R10, 0x00000000)  returns 0x00 (0000ms, 1648ms total)
T4500 002:668 JLINK_WriteReg(R11, 0x00000000)  returns 0x00 (0000ms, 1648ms total)
T4500 002:668 JLINK_WriteReg(R12, 0x00000000)  returns 0x00 (0000ms, 1648ms total)
T4500 002:668 JLINK_WriteReg(R13, 0x20000800)  returns 0x00 (0000ms, 1648ms total)
T4500 002:668 JLINK_WriteReg(R14, 0x20000001)  returns 0x00 (0000ms, 1648ms total)
T4500 002:668 JLINK_WriteReg(R15, 0x200000F4)  returns 0x00 (0000ms, 1648ms total)
T4500 002:668 JLINK_WriteReg(XPSR, 0x01000000)  returns 0x00 (0000ms, 1648ms total)
T4500 002:668 JLINK_WriteReg(MSP, 0x20000800)  returns 0x00 (0000ms, 1648ms total)
T4500 002:668 JLINK_WriteReg(PSP, 0x20000800)  returns 0x00 (0000ms, 1648ms total)
T4500 002:668 JLINK_WriteReg(CFBP, 0x00000000)  returns 0x00 (0000ms, 1648ms total)
T4500 002:668 JLINK_SetBPEx(Addr = 0x20000000, Type = 0xFFFFFFF2)  returns 0x00000011 (0000ms, 1648ms total)
T4500 002:668 JLINK_Go() -- CPU_WriteMem(4 bytes @ 0xE0002008) -- CPU_WriteMem(4 bytes @ 0xE000200C) -- CPU_WriteMem(4 bytes @ 0xE0002010) -- CPU_WriteMem(4 bytes @ 0xE0002014) -- CPU_WriteMem(4 bytes @ 0xE0002018) -- CPU_WriteMem(4 bytes @ 0xE000201C) (0006ms, 1648ms total)
T4500 002:674 JLINK_IsHalted()  returns FALSE (0001ms, 1654ms total)
T4500 002:726 JLINK_IsHalted() -- CPU_ReadMem(2 bytes @ 0x20000000)  returns TRUE (0003ms, 1654ms total)
T4500 002:729 JLINK_ReadReg(R15)  returns 0x20000000 (0000ms, 1654ms total)
T4500 002:729 JLINK_ClrBPEx(BPHandle = 0x00000011)  returns 0x00 (0000ms, 1654ms total)
T4500 002:729 JLINK_ReadReg(R0)  returns 0x00000000 (0000ms, 1654ms total)
